(1683830157.766742) vcan0 18F010FE#3335646638353964
(1683830157.867367) vcan0 18FBFEFE#3133353265656502
(1683830157.967941) vcan0 18FD97FE#6234000000000000
(1683830158.068521) vcan0 0CF150FE#3563333661633662
(1683830158.169080) vcan0 18FCDAFE#3462363337386164
(1683830158.269650) vcan0 0CF13CFE#3164353362316234
(1683830158.370279) vcan0 18FDE0FE#3633663536383065
(1683830158.470833) vcan0 0CF11BFE#3331316136000000
(1683830158.571404) vcan0 18FB78FE#6266353538616363
(1683830158.671800) vcan0 1881FEFE#6403000000000000
(1683830158.772354) vcan0 0CF178FE#3863303430640000
(1683830158.872923) vcan0 1CFEABFE#3639336200000000
(1683830158.973505) vcan0 1873FEFE#0335316100000000
(1683830159.074060) vcan0 04F032FE#6563000000000000
(1683830159.174619) vcan0 0CF048FE#3863343438103738
(1683830159.275288) vcan0 0CFE5AFE#3066633433093830
(1683830159.375884) vcan0 18FC9FFE#3734303966630337
(1683830159.476435) vcan0 0CFE00FE#3731336135613334
(1683830159.576995) vcan0 1CFCABFE#6662333164333830
(1683830159.677528) vcan0 18FE5BFE#3436053433006500
(1683830159.778048) vcan0 0CF146FE#6634323261613730
(1683830159.878597) vcan0 14FC34FE#6530623037326664
(1683830159.979140) vcan0 18FC40FE#3463613336000000
(1683830160.079667) vcan0 18FB6FFE#6566643300000000
(1683830160.180196) vcan0 18FB8DFE#3636336530303933
(1683830160.280711) vcan0 0CFD93FE#3261632235333000
(1683830160.381252) vcan0 18FE4FFE#3566000000000000
(1683830160.481885) vcan0 0CFD30FE#6537663430356565
(1683830160.582416) vcan0 18FCDDFE#6535000000000000
(1683830160.682856) vcan0 0CF11DFE#0338356363643200
(1683830160.783396) vcan0 1865FEFE#6137623936636537
(1683830160.883886) vcan0 0CFBDAFE#3233646433630000
(1683830161.084955) vcan0 18F0E9FE#6364383362353804
(1683830161.185515) vcan0 18FD04FE#6202000000000000
(1683830161.286057) vcan0 18FB8EFE#3165346133653336
(1683830161.386567) vcan0 0CF043FE#3135343831143161
(1683830161.487183) vcan0 0CF003FE#3262643765366630
(1683830161.587747) vcan0 14F04EFE#6431613766373465
(1683830161.688241) vcan0 18FCF9FE#6435623962610000
(1683830161.788783) vcan0 0CF0E6FE#3330653333323766
(1683830161.889283) vcan0 18FD73FE#6232626462623066
(1683830161.989675) vcan0 18FEFBFE#6163016200000000
(1683830162.090258) vcan0 0CF0C9FE#3039333300000000
(1683830162.190649) vcan0 14FD81FE#3200000000000000
(1683830162.291105) vcan0 18FEEEFE#3863636139333162
(1683830162.391529) vcan0 18FE9AFE#6363633839656164
(1683830162.492064) vcan0 0CF064FE#3035333364633064
(1683830162.592623) vcan0 0CF024FE#6639383238333700
(1683830162.693126) vcan0 18FD3DFE#3230616218043215
(1683830162.793635) vcan0 0CFDFCFE#3861626136316332
(1683830162.894205) vcan0 18CFFEFE#3063653539383464
(1683830162.994782) vcan0 18FEEFFE#3433343164616238
(1683830163.095348) vcan0 18FC9FFE#6336373035660361
(1683830163.195840) vcan0 185DFEFE#6204000000000000
(1683830163.296383) vcan0 1CFEB3FE#3263376462356433
(1683830163.396944) vcan0 18FBE4FE#3000653831323466
(1683830163.497588) vcan0 0CFD2DFE#3766313163326065
(1683830163.598207) vcan0 18F0E2FE#3365353839633564
(1683830163.698646) vcan0 18A8FEFE#0300620000000000
(1683830163.799089) vcan0 18FD31FE#3102396535343300
(1683830163.899632) vcan0 18FC50FE#3133333962363700
(1683830164.000189) vcan0 0CF094FE#6561666362653234
(1683830164.100697) vcan0 0CF153FE#6533346436326635
(1683830164.201250) vcan0 0CF175FE#6633623065310000
(1683830164.301776) vcan0 18FD7AFE#3133646336313632
(1683830164.402263) vcan0 18FC0EFE#3337000000000000
(1683830164.502728) vcan0 08FE6EFE#3037646539376364
(1683830164.603269) vcan0 0CFD93FE#3161353330356200
(1683830164.703759) vcan0 0CF023FE#3536613466306265
(1683830164.804335) vcan0 14F054FE#3564323138303136
(1683830164.904893) vcan0 1CFCA9FE#3266313262346331
(1683830165.005443) vcan0 18FC94FE#6362633604050100
(1683830165.106012) vcan0 18FEC0FE#3962333331363031
(1683830165.206639) vcan0 18FC4FFE#6335000000000000
(1683830165.307228) vcan0 187BFEFE#0366626200000000
(1683830165.407714) vcan0 18FC11FE#6337376365643865
(1683830165.508302) vcan0 18FDA1FE#3564643035613435
(1683830165.608824) vcan0 18FC3EFE#0400000000000000
(1683830165.709339) vcan0 18FC45FE#666531623833
(1683830165.809867) vcan0 1CFEA8FE#6561350000000000
(1683830165.910380) vcan0 0CFE04FE#3038303962650200
(1683830166.010809) vcan0 18FCD8FE#3466393162656263
(1683830166.111303) vcan0 04F032FE#3235020000000000
(1683830166.211787) vcan0 1CFEAAFE#6233393938613200
(1683830166.312316) vcan0 0C1DFEFE#3331000000000000
(1683830166.613573) vcan0 10FCFDFE#3865313339613630
(1683830166.714072) vcan0 1CFE7DFE#3361366663626330
(1683830166.914874) vcan0 18FE98FE#3564663736303432
(1683830167.015353) vcan0 18FB96FE#6262000000000000
(1683830167.115919) vcan0 18FCC4FE#3237190000000000
(1683830167.216477) vcan0 0CFBAFFE#3039303433000000
(1683830167.317036) vcan0 18FEFBFE#3937023400000000
(1683830167.417573) vcan0 0CF030FE#3166303033353700
(1683830167.518104) vcan0 1CFCABFE#3033303639373833
(1683830167.618702) vcan0 18FE4CFE#3600000000000031
(1683830167.719143) vcan0 18FCCBFE#6135343933646600
(1683830167.819732) vcan0 0CFBE6FE#0261663966360000
(1683830167.920301) vcan0 187DFEFE#0666626161360000
(1683830168.020750) vcan0 18FCD0FE#3036346339620000
(1683830168.121284) vcan0 18F01DFE#3539330038300538
(1683830168.221786) vcan0 14FC33FE#6535616500000000
(1683830168.322345) vcan0 18FD67FE#0200000000000000
(1683830168.422838) vcan0 14FC90FE#3836353639386631
(1683830168.523411) vcan0 0CF027FE#3037636163323764
(1683830168.623936) vcan0 0CFBA9FE#6439356334373432
(1683830168.724453) vcan0 18F006FE#3932350400000000
(1683830168.825024) vcan0 18FBE5FE#3431626361383433
(1683830168.925532) vcan0 0CF112FE#0461343034643100
(1683830169.026054) vcan0 18FCDDFE#3331000000000000
(1683830169.126640) vcan0 1CFDDFFE#0300000000000000
(1683830169.227034) vcan0 18FBB3FE#6434313430663036
