  vcan0  18F010FE   [8]  33 35 64 66 38 35 39 64
  vcan0  18FBFEFE   [8]  31 33 35 32 65 65 65 02
  vcan0  18FD97FE   [8]  62 34 00 00 00 00 00 00
  vcan0  0CF150FE   [8]  35 63 33 36 61 63 36 62
  vcan0  18FCDAFE   [8]  34 62 36 33 37 38 61 64
  vcan0  0CF13CFE   [8]  31 64 35 33 62 31 62 34
  vcan0  18FDE0FE   [8]  36 33 66 35 36 38 30 65
  vcan0  0CF11BFE   [8]  33 31 31 61 36 00 00 00
  vcan0  18FB78FE   [8]  62 66 35 35 38 61 63 63
  vcan0  1881FEFE   [8]  64 03 00 00 00 00 00 00
  vcan0  0CF178FE   [8]  38 63 30 34 30 64 00 00
  vcan0  1CFEABFE   [8]  36 39 33 62 00 00 00 00
  vcan0  1873FEFE   [8]  03 35 31 61 00 00 00 00
  vcan0  04F032FE   [8]  65 63 00 00 00 00 00 00
  vcan0  0CF048FE   [8]  38 63 34 34 38 10 37 38
  vcan0  0CFE5AFE   [8]  30 66 63 34 33 09 38 30
  vcan0  18FC9FFE   [8]  37 34 30 39 66 63 03 37
  vcan0  0CFE00FE   [8]  37 31 33 61 35 61 33 34
  vcan0  1CFCABFE   [8]  66 62 33 31 64 33 38 30
  vcan0  18FE5BFE   [8]  34 36 05 34 33 00 65 00
  vcan0  0CF146FE   [8]  66 34 32 32 61 61 37 30
  vcan0  14FC34FE   [8]  65 30 62 30 37 32 66 64
  vcan0  18FC40FE   [8]  34 63 61 33 36 00 00 00
  vcan0  18FB6FFE   [8]  65 66 64 33 00 00 00 00
  vcan0  18FB8DFE   [8]  36 36 33 65 30 30 39 33
  vcan0  0CFD93FE   [8]  32 61 63 22 35 33 30 00
  vcan0  18FE4FFE   [8]  35 66 00 00 00 00 00 00
  vcan0  0CFD30FE   [8]  65 37 66 34 30 35 65 65
  vcan0  18FCDDFE   [8]  65 35 00 00 00 00 00 00
  vcan0  0CF11DFE   [8]  03 38 35 63 63 64 32 00
  vcan0  1865FEFE   [8]  61 37 62 39 36 63 65 37
  vcan0  0CFBDAFE   [8]  32 33 64 64 33 63 00 00
  vcan0  18F0E9FE   [8]  63 64 38 33 62 35 38 04
  vcan0  18FD04FE   [8]  62 02 00 00 00 00 00 00
  vcan0  18FB8EFE   [8]  31 65 34 61 33 65 33 36
  vcan0  0CF043FE   [8]  31 35 34 38 31 14 31 61
  vcan0  0CF003FE   [8]  32 62 64 37 65 36 66 30
  vcan0  14F04EFE   [8]  64 31 61 37 66 37 34 65
  vcan0  18FCF9FE   [8]  64 35 62 39 62 61 00 00
  vcan0  0CF0E6FE   [8]  33 30 65 33 33 32 37 66
  vcan0  18FD73FE   [8]  62 32 62 64 62 62 30 66
  vcan0  18FEFBFE   [8]  61 63 01 62 00 00 00 00
  vcan0  0CF0C9FE   [8]  30 39 33 33 00 00 00 00
  vcan0  14FD81FE   [8]  32 00 00 00 00 00 00 00
  vcan0  18FEEEFE   [8]  38 63 63 61 39 33 31 62
  vcan0  18FE9AFE   [8]  63 63 63 38 39 65 61 64
  vcan0  0CF064FE   [8]  30 35 33 33 64 63 30 64
  vcan0  0CF024FE   [8]  66 39 38 32 38 33 37 00
  vcan0  18FD3DFE   [8]  32 30 61 62 18 04 32 15
  vcan0  0CFDFCFE   [8]  38 61 62 61 36 31 63 32
  vcan0  18CFFEFE   [8]  30 63 65 35 39 38 34 64
  vcan0  18FEEFFE   [8]  34 33 34 31 64 61 62 38
  vcan0  18FC9FFE   [8]  63 36 37 30 35 66 03 61
  vcan0  185DFEFE   [8]  62 04 00 00 00 00 00 00
  vcan0  1CFEB3FE   [8]  32 63 37 64 62 35 64 33
  vcan0  18FBE4FE   [8]  30 00 65 38 31 32 34 66
  vcan0  0CFD2DFE   [8]  37 66 31 31 63 32 60 65
  vcan0  18F0E2FE   [8]  33 65 35 38 39 63 35 64
  vcan0  18A8FEFE   [8]  03 00 62 00 00 00 00 00
  vcan0  18FD31FE   [8]  31 02 39 65 35 34 33 00
  vcan0  18FC50FE   [8]  31 33 33 39 62 36 37 00
  vcan0  0CF094FE   [8]  65 61 66 63 62 65 32 34
  vcan0  0CF153FE   [8]  65 33 34 64 36 32 66 35
  vcan0  0CF175FE   [8]  66 33 62 30 65 31 00 00
  vcan0  18FD7AFE   [8]  31 33 64 63 36 31 36 32
  vcan0  18FC0EFE   [8]  33 37 00 00 00 00 00 00
  vcan0  08FE6EFE   [8]  30 37 64 65 39 37 63 64
  vcan0  0CFD93FE   [8]  31 61 35 33 30 35 62 00
  vcan0  0CF023FE   [8]  35 36 61 34 66 30 62 65
  vcan0  14F054FE   [8]  35 64 32 31 38 30 31 36
  vcan0  1CFCA9FE   [8]  32 66 31 32 62 34 63 31
  vcan0  18FC94FE   [8]  63 62 63 36 04 05 01 00
  vcan0  18FEC0FE   [8]  39 62 33 33 31 36 30 31
  vcan0  18FC4FFE   [8]  63 35 00 00 00 00 00 00
  vcan0  187BFEFE   [8]  03 66 62 62 00 00 00 00
  vcan0  18FC11FE   [8]  63 37 37 63 65 64 38 65
  vcan0  18FDA1FE   [8]  35 64 64 30 35 61 34 35
  vcan0  18FC3EFE   [8]  04 00 00 00 00 00 00 00
  vcan0  18FC45FE   [6]  66 65 31 62 38 33
  vcan0  1CFEA8FE   [8]  65 61 35 00 00 00 00 00
  vcan0  0CFE04FE   [8]  30 38 30 39 62 65 02 00
  vcan0  18FCD8FE   [8]  34 66 39 31 62 65 62 63
  vcan0  04F032FE   [8]  32 35 02 00 00 00 00 00
  vcan0  1CFEAAFE   [8]  62 33 39 39 38 61 32 00
  vcan0  0C1DFEFE   [8]  33 31 00 00 00 00 00 00
  vcan0  10FCFDFE   [8]  38 65 31 33 39 61 36 30
  vcan0  1CFE7DFE   [8]  33 61 36 66 63 62 63 30
  vcan0  18FE98FE   [8]  35 64 66 37 36 30 34 32
  vcan0  18FB96FE   [8]  62 62 00 00 00 00 00 00
  vcan0  18FCC4FE   [8]  32 37 19 00 00 00 00 00
  vcan0  0CFBAFFE   [8]  30 39 30 34 33 00 00 00
  vcan0  18FEFBFE   [8]  39 37 02 34 00 00 00 00
  vcan0  0CF030FE   [8]  31 66 30 30 33 35 37 00
  vcan0  1CFCABFE   [8]  30 33 30 36 39 37 38 33
  vcan0  18FE4CFE   [8]  36 00 00 00 00 00 00 31
  vcan0  18FCCBFE   [8]  61 35 34 39 33 64 66 00
  vcan0  0CFBE6FE   [8]  02 61 66 39 66 36 00 00
  vcan0  187DFEFE   [8]  06 66 62 61 61 36 00 00
  vcan0  18FCD0FE   [8]  30 36 34 63 39 62 00 00
  vcan0  18F01DFE   [8]  35 39 33 00 38 30 05 38
  vcan0  14FC33FE   [8]  65 35 61 65 00 00 00 00
  vcan0  18FD67FE   [8]  02 00 00 00 00 00 00 00
  vcan0  14FC90FE   [8]  38 36 35 36 39 38 66 31
  vcan0  0CF027FE   [8]  30 37 63 61 63 32 37 64
  vcan0  0CFBA9FE   [8]  64 39 35 63 34 37 34 32
  vcan0  18F006FE   [8]  39 32 35 04 00 00 00 00
  vcan0  18FBE5FE   [8]  34 31 62 63 61 38 34 33
  vcan0  0CF112FE   [8]  04 61 34 30 34 64 31 00
  vcan0  18FCDDFE   [8]  33 31 00 00 00 00 00 00
  vcan0  1CFDDFFE   [8]  03 00 00 00 00 00 00 00
  vcan0  18FBB3FE   [8]  64 34 31 34 30 66 30 36
  vcan0  18FC57FE   [8]  32 33 34 62 65 38 65 63
  vcan0  1CFEA5FE   [8]  35 32 66 32 36 00 00 00
  vcan0  1CFEC5FE   [8]  30 38 00 00 00 00 00 00
  vcan0  18FE98FE   [8]  63 33 61 30 36 37 61 61
  vcan0  0CFE01FE   [8]  34 64 65 62 32 66 00 00
  vcan0  18FD3CFE   [8]  34 31 34 39 31 33 62 61
  vcan0  187AFEFE   [8]  06 31 30 35 00 00 00 00
  vcan0  0CFDEBFE   [8]  31 66 37 38 61 32 00 00
  vcan0  0CF030FE   [8]  61 63 30 64 31 36 61 00
  vcan0  18FC29FE   [8]  33 63 63 62 62 30 33 35
  vcan0  1881FEFE   [8]  33 04 00 00 00 00 00 00
  vcan0  18FCE8FE   [8]  02 00 00 00 00 00 00 00
  vcan0  18FBD5FE   [8]  62 62 66 32 00 00 00 00
  vcan0  18FB85FE   [8]  64 01 61 36 00 00 00 00
  vcan0  0CF16BFE   [8]  65 39 66 32 36 32 61 65
  vcan0  0CD1FEFE   [8]  31 33 37 34 34 31 39 38
  vcan0  0CF027FE   [8]  31 65 32 61 30 36 31 65
  vcan0  14FC38FE   [8]  34 65 30 35 31 64 33 61
  vcan0  18FCC9FE   [8]  63 37 37 31 33 31 38 00
  vcan0  18FBDDFE   [8]  34 35 66 63 34 35 37 00
  vcan0  08FE6EFE   [8]  32 37 66 62 39 33 62 32
  vcan0  18FDC1FE   [8]  38 64 38 38 64 39 63 63
  vcan0  14FC15FE   [8]  30 38 63 34 66 30 33 64
  vcan0  1CFE89FE   [8]  38 66 39 39 65 30 31 61
  vcan0  18FC42FE   [8]  35 35 64 36 30 00 00 00
  vcan0  0CF152FE   [8]  65 36 62 62 34 64 63 61
  vcan0  14FC37FE   [8]  62 30 00 00 00 00 00 00
  vcan0  1CFBD4FE   [8]  64 34 36 32 31 32 34 61
  vcan0  0CF065FE   [8]  39 63 61 34 31 64 65 66
  vcan0  18FCE4FE   [8]  62 38 33 36 33 31 61 34
  vcan0  18FCF1FE   [8]  64 65 35 34 05 39 63 30
  vcan0  08F110FE   [8]  31 34 01 00 00 00 00 00
  vcan0  0CFBC6FE   [8]  31 62 63 38 61 00 00 00
  vcan0  0CF030FE   [8]  61 34 60 65 36 62 38 00
  vcan0  18FD22FE   [8]  62 62 38 30 66 63 36 61
  vcan0  18FD41FE   [8]  34 63 65 32 35 66 62 37
  vcan0  18FEBDFE   [8]  63 00 65 65 38 39 31 00
  vcan0  0CF017FE   [8]  37 39 61 35 36 39 32 35
  vcan0  18FDDCFE   [8]  62 02 00 00 00 00 00 00
  vcan0  18FC10FE   [8]  31 65 33 00 00 00 00 00
  vcan0  0CF15EFE   [8]  62 61 39 62 31 64 33 66
